
T2878 001:464 SEGGER J-Link V4.15n (beta) Log File (0001ms, 1444ms total)
T2878 001:464 DLL Compiled: Jun 18 2010 19:55:09 (0001ms, 1444ms total)
T2878 001:464 Logging started @ 2013-11-03 19:33 (0001ms, 1444ms total)
T2878 001:465 JLINK_SetWarnOutHandler(...) (0000ms, 1445ms total)
T2878 001:465 JLINK_OpenEx(...)
Firmware: J-Link ARM V8 compiled Jun 19 2012 11:29:30
Hardware: V8.00
S/N: 99999994
Feature(s): RDI,FlashDL,FlashBP,JFlash,GDBFULL  returns O.K. (0949ms, 1445ms total)
T2878 002:414 JLINK_SetErrorOutHandler(...) (0000ms, 2394ms total)
T2878 002:421 JLINK_ExecCommand("ProjectFile = "C:\Users\Administrator\Desktop\淘宝\新建文件夹\RT-Thread-0.3.1\bsp\stm3210\project_lwip\JLinkSettings.ini"", ...)  returns 0x00 (0001ms, 2394ms total)
T2878 002:442 JLINK_ExecCommand("DisableConnectionTimeout", ...)  returns 0x00 (0000ms, 2395ms total)
T2878 002:457 JLINK_TIF_Select(JLINKARM_TIF_SWD)  returns 0x00 (0023ms, 2395ms total)
T2878 002:480 JLINK_SetSpeed(3000) (0015ms, 2418ms total)
T2878 002:495 JLINK_GetHardwareVersion()  returns 0x13880 (0000ms, 2433ms total)
T2878 002:495 JLINK_GetDLLVersion()  returns 41514 (0000ms, 2433ms total)
T2878 002:496 JLINK_GetFirmwareString(...) (0000ms, 2433ms total)
T2878 002:521 JLINK_GetDLLVersion()  returns 41514 (0001ms, 2433ms total)
T2878 002:522 JLINK_GetCompileDateTime() (0000ms, 2434ms total)
T2878 002:533 JLINK_GetFirmwareString(...) (0001ms, 2434ms total)
T2878 002:542 JLINK_GetHardwareVersion()  returns 0x13880 (0000ms, 2435ms total)
T2878 002:612 JLINK_Reset() >0x108 TIF>Found SWD-DP with ID 0x1BA01477 >0x33 TIF> >0x33 TIF> >0x35 TIF> >0x33 TIF> >0x35 TIF> >0x33 TIF> >0x33 TIF> >0x9B TIF> >0x9B TIF> >0x1D7 TIF> >0x13A TIF> >0x13A TIF>TPIU fitted. >0x13A TIF> >0x13A TIF>  FPUnit: 6 code (BP) slots and 2 literal slots >0x13A TIF> >0x13A TIF> >0x1D7 TIF> >0x1D7 TIF> >0x20C TIF> >0x13A TIF> >0x13A TIF> >0x1D7 TIF> >0x1D7 TIF> >0x13A TIF> >0x13A TIF> >0x11E4 TIF> >0x1D7 TIF> >0x13A TIF> >0x11E4 TIF> (0300ms, 2435ms total)
T2878 002:912 JLINK_JTAG_StoreRaw(..., 0x108 Bits)  returns 0x00 (0000ms, 2735ms total)
T2878 002:912 JLINK_JTAG_GetU32(BitPos = 227) >0x108 TIF>  returns 0x1BA01477 (0009ms, 2735ms total)
T2878 002:921 JLINK_GetDebugInfo(0x100) -- Value=0xE00FF003  returns 0x00 (0007ms, 2744ms total)
T2878 002:933 JLINK_ReadMem (0xE00FF000, 0x0018 Bytes, ...) -- CPU_ReadMem(24 bytes @ 0xE00FF000) -- Data:  03 F0 F0 FF 03 20 F0 FF 03 30 F0 FF 03 10 F0 FF ...  returns 0x00 (0014ms, 2751ms total)
T2878 002:947 JLINK_ReadMemU32(0xE000ED00, 0x0001 Items, ...) -- CPU_ReadMem(4 bytes @ 0xE000ED00) -- Data:  31 C2 1F 41  returns 0x01 (0007ms, 2765ms total)
T2878 002:956 JLINK_Halt()  returns 0x00 (0000ms, 2772ms total)
T2878 002:956 JLINK_IsHalted()  returns TRUE (0000ms, 2772ms total)
T2878 002:956 JLINK_ReadMemU32(0xE000EDF0, 0x0001 Items, ...) -- CPU_ReadMem(4 bytes @ 0xE000EDF0) -- Data:  03 00 03 00  returns 0x01 (0010ms, 2772ms total)
T2878 002:966 JLINK_WriteU32(0xE000EDF0, 0xA05F0003) -- CPU_WriteMem(4 bytes @ 0xE000EDF0)  returns 0x00 (0007ms, 2782ms total)
T2878 002:973 JLINK_WriteU32(0xE000EDFC, 0x01000000) -- CPU_WriteMem(4 bytes @ 0xE000EDFC)  returns 0x00 (0007ms, 2789ms total)
T2878 002:980 JLINK_ReadMemU32(0xE0002000, 0x0001 Items, ...) -- CPU_ReadMem(4 bytes @ 0xE0002000) -- Data:  60 02 00 00  returns 0x01 (0007ms, 2796ms total)
T2878 002:987 JLINK_ReadMemU32(0xE0001000, 0x0001 Items, ...) -- CPU_ReadMem(4 bytes @ 0xE0001000) -- Data:  01 00 00 40  returns 0x01 (0012ms, 2803ms total)
T2878 003:017 JLINK_ExecCommand("Device = STM32F103ZE", ...)
                JLINK_ExecCommand("map ram 0x20000000 - 0x2000FFFF", ...)  returns 0x00 (0000ms, 0000ms total)
                JLINK_AddMirrorAreaEx(Addr = 0x00000000, Size = 0x00000000) (0001ms, 0000ms total)
                returns 0x00 (0002ms, 2815ms total)
T2878 003:019 JLINK_GetHWStatus(...)  returns 0x00 (0009ms, 2817ms total)
T2878 003:039 JLINK_GetNumBPUnits(Type = 0xFFFFFF00) >0x108 TIF>Found SWD-DP with ID 0x1BA01477 >0x33 TIF> >0x33 TIF> >0x35 TIF> >0x33 TIF> >0x35 TIF> >0x33 TIF> >0x33 TIF> >0x9B TIF> >0x9B TIF> >0x1D7 TIF> >0x13A TIF> >0x13A TIF>TPIU fitted. >0x13A TIF> >0x13A TIF>  FPUnit: 6 code (BP) slots and 2 literal slots >0x13A TIF> >0x13A TIF>  returns 0x06 (0163ms, 2826ms total)
T2878 003:202 JLINK_GetNumBPUnits(Type = 0xF0)  returns 0x800 (0000ms, 2989ms total)
T2878 003:202 JLINK_GetNumWPUnits()  returns 0x04 (0000ms, 2989ms total)
T2878 003:218 JLINK_GetSpeed()  returns 0x7D0 (0000ms, 2989ms total)
T2878 003:228 JLINK_ReadMemU32(0xE000E004, 0x0001 Items, ...) -- CPU_ReadMem(4 bytes @ 0xE000E004) -- Data:  01 00 00 00  returns 0x01 (0006ms, 2989ms total)
T2878 003:234 JLINK_WriteMem(0xE0001000, 0x001C Bytes, ...) -- Data:  01 00 00 00 00 00 00 00 00 00 00 00 00 00 00 00 ... -- CPU_WriteMem(28 bytes @ 0xE0001000)  returns 0x1C (0008ms, 2995ms total)
T2878 003:242 JLINK_ReadMem (0xE0001000, 0x001C Bytes, ...) -- CPU_ReadMem(28 bytes @ 0xE0001000) -- Data:  01 00 00 40 00 00 00 00 00 00 00 00 00 00 00 00 ...  returns 0x00 (0007ms, 3003ms total)
T2878 003:249 JLINK_Halt()  returns 0x00 (0000ms, 3010ms total)
T2878 003:249 JLINK_IsHalted()  returns TRUE (0000ms, 3010ms total)
T2878 003:252 JLINK_WriteMem(0x20000000, 0x0164 Bytes, ...) -- Data:  00 BE 0A E0 0D 78 2D 06 68 40 08 24 40 00 00 D3 ... -- CPU_WriteMem(356 bytes @ 0x20000000)  returns 0x164 (0013ms, 3010ms total)
T2878 003:265 JLINK_WriteReg(R0, 0x08000000)  returns 0x00 (0000ms, 3023ms total)
T2878 003:265 JLINK_WriteReg(R1, 0x007A1200)  returns 0x00 (0000ms, 3023ms total)
T2878 003:265 JLINK_WriteReg(R2, 0x00000001)  returns 0x00 (0000ms, 3023ms total)
T2878 003:265 JLINK_WriteReg(R3, 0x00000000)  returns 0x00 (0000ms, 3023ms total)
T2878 003:265 JLINK_WriteReg(R4, 0x00000000)  returns 0x00 (0000ms, 3023ms total)
T2878 003:265 JLINK_WriteReg(R5, 0x00000000)  returns 0x00 (0000ms, 3023ms total)
T2878 003:265 JLINK_WriteReg(R6, 0x00000000)  returns 0x00 (0001ms, 3023ms total)
T2878 003:266 JLINK_WriteReg(R7, 0x00000000)  returns 0x00 (0000ms, 3024ms total)
T2878 003:266 JLINK_WriteReg(R8, 0x00000000)  returns 0x00 (0000ms, 3024ms total)
T2878 003:266 JLINK_WriteReg(R9, 0x20000160)  returns 0x00 (0000ms, 3024ms total)
T2878 003:266 JLINK_WriteReg(R10, 0x00000000)  returns 0x00 (0000ms, 3024ms total)
T2878 003:266 JLINK_WriteReg(R11, 0x00000000)  returns 0x00 (0000ms, 3024ms total)
T2878 003:266 JLINK_WriteReg(R12, 0x00000000)  returns 0x00 (0000ms, 3024ms total)
T2878 003:266 JLINK_WriteReg(R13, 0x20000800)  returns 0x00 (0000ms, 3024ms total)
T2878 003:266 JLINK_WriteReg(R14, 0x20000001)  returns 0x00 (0000ms, 3024ms total)
T2878 003:266 JLINK_WriteReg(R15, 0x20000038)  returns 0x00 (0000ms, 3024ms total)
T2878 003:266 JLINK_WriteReg(XPSR, 0x01000000)  returns 0x00 (0000ms, 3024ms total)
T2878 003:266 JLINK_WriteReg(MSP, 0x20000800)  returns 0x00 (0000ms, 3024ms total)
T2878 003:266 JLINK_WriteReg(PSP, 0x20000800)  returns 0x00 (0000ms, 3024ms total)
T2878 003:266 JLINK_WriteReg(CFBP, 0x00000000)  returns 0x00 (0000ms, 3024ms total)
T2878 003:266 JLINK_SetBPEx(Addr = 0x20000000, Type = 0xFFFFFFF2) -- CPU_ReadMem(2 bytes @ 0x20000000)  returns 0x00000001 (0011ms, 3024ms total)
T2878 003:277 JLINK_Go() -- CPU_WriteMem(2 bytes @ 0x20000000) -- CPU_WriteMem(4 bytes @ 0xE0002008) -- CPU_WriteMem(4 bytes @ 0xE000200C) -- CPU_WriteMem(4 bytes @ 0xE0002010) -- CPU_WriteMem(4 bytes @ 0xE0002014) -- CPU_WriteMem(4 bytes @ 0xE0002018) -- CPU_WriteMem(4 bytes @ 0xE000201C) (0069ms, 3035ms total)
T2878 003:346 JLINK_IsHalted() -- CPU_ReadMem(2 bytes @ 0x20000000)  returns TRUE (0025ms, 3104ms total)
T2878 003:371 JLINK_ReadReg(R15)  returns 0x20000000 (0000ms, 3104ms total)
T2878 003:371 JLINK_ClrBPEx(BPHandle = 0x00000001)  returns 0x00 (0000ms, 3104ms total)
T2878 003:371 JLINK_ReadReg(R0)  returns 0x00000000 (0000ms, 3104ms total)
T2878 003:371 JLINK_WriteReg(R0, 0x08000000)  returns 0x00 (0000ms, 3104ms total)
T2878 003:371 JLINK_WriteReg(R1, 0x007A1200)  returns 0x00 (0000ms, 3104ms total)
T2878 003:371 JLINK_WriteReg(R2, 0x00000001)  returns 0x00 (0000ms, 3104ms total)
T2878 003:371 JLINK_WriteReg(R3, 0x00000000)  returns 0x00 (0001ms, 3104ms total)
T2878 003:372 JLINK_WriteReg(R4, 0x00000000)  returns 0x00 (0000ms, 3105ms total)
T2878 003:372 JLINK_WriteReg(R5, 0x00000000)  returns 0x00 (0000ms, 3105ms total)
T2878 003:372 JLINK_WriteReg(R6, 0x00000000)  returns 0x00 (0000ms, 3105ms total)
T2878 003:372 JLINK_WriteReg(R7, 0x00000000)  returns 0x00 (0000ms, 3105ms total)
T2878 003:372 JLINK_WriteReg(R8, 0x00000000)  returns 0x00 (0000ms, 3105ms total)
T2878 003:372 JLINK_WriteReg(R9, 0x20000160)  returns 0x00 (0000ms, 3105ms total)
T2878 003:372 JLINK_WriteReg(R10, 0x00000000)  returns 0x00 (0000ms, 3105ms total)
T2878 003:372 JLINK_WriteReg(R11, 0x00000000)  returns 0x00 (0000ms, 3105ms total)
T2878 003:372 JLINK_WriteReg(R12, 0x00000000)  returns 0x00 (0000ms, 3105ms total)
T2878 003:372 JLINK_WriteReg(R13, 0x20000800)  returns 0x00 (0000ms, 3105ms total)
T2878 003:372 JLINK_WriteReg(R14, 0x20000001)  returns 0x00 (0000ms, 3105ms total)
T2878 003:372 JLINK_WriteReg(R15, 0x2000007C)  returns 0x00 (0000ms, 3105ms total)
T2878 003:372 JLINK_WriteReg(XPSR, 0x01000000)  returns 0x00 (0000ms, 3105ms total)
T2878 003:372 JLINK_WriteReg(MSP, 0x20000800)  returns 0x00 (0000ms, 3105ms total)
T2878 003:372 JLINK_WriteReg(PSP, 0x20000800)  returns 0x00 (0000ms, 3105ms total)
T2878 003:373 JLINK_WriteReg(CFBP, 0x00000000)  returns 0x00 (0000ms, 3105ms total)
T2878 003:373 JLINK_SetBPEx(Addr = 0x20000000, Type = 0xFFFFFFF2)  returns 0x00000002 (0000ms, 3105ms total)
T2878 003:373 JLINK_Go() -- CPU_WriteMem(4 bytes @ 0xE0002008) -- CPU_WriteMem(4 bytes @ 0xE000200C) -- CPU_WriteMem(4 bytes @ 0xE0002010) -- CPU_WriteMem(4 bytes @ 0xE0002014) -- CPU_WriteMem(4 bytes @ 0xE0002018) -- CPU_WriteMem(4 bytes @ 0xE000201C) (0056ms, 3105ms total)
T2878 003:436 JLINK_IsHalted()  returns FALSE (0007ms, 3161ms total)
T2878 003:493 JLINK_IsHalted() -- CPU_ReadMem(2 bytes @ 0x20000000)  returns TRUE (0023ms, 3161ms total)
T2878 003:516 JLINK_ReadReg(R15)  returns 0x20000000 (0000ms, 3161ms total)
T2878 003:516 JLINK_ClrBPEx(BPHandle = 0x00000002)  returns 0x00 (0000ms, 3161ms total)
T2878 003:516 JLINK_ReadReg(R0)  returns 0x00000000 (0000ms, 3161ms total)
T2878 003:566 JLINK_WriteReg(R0, 0x00000001)  returns 0x00 (0000ms, 3161ms total)
T2878 003:566 JLINK_WriteReg(R1, 0x007A1200)  returns 0x00 (0000ms, 3161ms total)
T2878 003:566 JLINK_WriteReg(R2, 0x00000001)  returns 0x00 (0000ms, 3161ms total)
T2878 003:566 JLINK_WriteReg(R3, 0x00000000)  returns 0x00 (0000ms, 3161ms total)
T2878 003:566 JLINK_WriteReg(R4, 0x00000000)  returns 0x00 (0000ms, 3161ms total)
T2878 003:566 JLINK_WriteReg(R5, 0x00000000)  returns 0x00 (0000ms, 3161ms total)
T2878 003:566 JLINK_WriteReg(R6, 0x00000000)  returns 0x00 (0000ms, 3161ms total)
T2878 003:566 JLINK_WriteReg(R7, 0x00000000)  returns 0x00 (0000ms, 3161ms total)
T2878 003:566 JLINK_WriteReg(R8, 0x00000000)  returns 0x00 (0000ms, 3161ms total)
T2878 003:566 JLINK_WriteReg(R9, 0x20000160)  returns 0x00 (0001ms, 3161ms total)
T2878 003:567 JLINK_WriteReg(R10, 0x00000000)  returns 0x00 (0000ms, 3162ms total)
T2878 003:567 JLINK_WriteReg(R11, 0x00000000)  returns 0x00 (0000ms, 3162ms total)
T2878 003:567 JLINK_WriteReg(R12, 0x00000000)  returns 0x00 (0000ms, 3162ms total)
T2878 003:567 JLINK_WriteReg(R13, 0x20000800)  returns 0x00 (0000ms, 3162ms total)
T2878 003:567 JLINK_WriteReg(R14, 0x20000001)  returns 0x00 (0000ms, 3162ms total)
T2878 003:567 JLINK_WriteReg(R15, 0x2000006A)  returns 0x00 (0000ms, 3162ms total)
T2878 003:567 JLINK_WriteReg(XPSR, 0x01000000)  returns 0x00 (0000ms, 3162ms total)
T2878 003:567 JLINK_WriteReg(MSP, 0x20000800)  returns 0x00 (0000ms, 3162ms total)
T2878 003:567 JLINK_WriteReg(PSP, 0x20000800)  returns 0x00 (0000ms, 3162ms total)
T2878 003:567 JLINK_WriteReg(CFBP, 0x00000000)  returns 0x00 (0000ms, 3162ms total)
T2878 003:567 JLINK_SetBPEx(Addr = 0x20000000, Type = 0xFFFFFFF2)  returns 0x00000003 (0000ms, 3162ms total)
T2878 003:567 JLINK_Go() -- CPU_WriteMem(4 bytes @ 0xE0002008) -- CPU_WriteMem(4 bytes @ 0xE000200C) -- CPU_WriteMem(4 bytes @ 0xE0002010) -- CPU_WriteMem(4 bytes @ 0xE0002014) -- CPU_WriteMem(4 bytes @ 0xE0002018) -- CPU_WriteMem(4 bytes @ 0xE000201C) (0057ms, 3162ms total)
T2878 003:624 JLINK_IsHalted() -- CPU_ReadMem(2 bytes @ 0x20000000)  returns TRUE (0027ms, 3219ms total)
T2878 003:651 JLINK_ReadReg(R15)  returns 0x20000000 (0000ms, 3219ms total)
T2878 003:651 JLINK_ClrBPEx(BPHandle = 0x00000003)  returns 0x00 (0000ms, 3219ms total)
T2878 003:651 JLINK_ReadReg(R0)  returns 0x00000000 (0000ms, 3219ms total)
T2878 003:661 JLINK_WriteMem(0x20000000, 0x0164 Bytes, ...) -- Data:  00 BE 0A E0 0D 78 2D 06 68 40 08 24 40 00 00 D3 ... -- CPU_WriteMem(356 bytes @ 0x20000000)  returns 0x164 (0013ms, 3219ms total)
T2878 003:674 JLINK_WriteReg(R0, 0x08000000)  returns 0x00 (0000ms, 3232ms total)
T2878 003:674 JLINK_WriteReg(R1, 0x007A1200)  returns 0x00 (0000ms, 3232ms total)
T2878 003:674 JLINK_WriteReg(R2, 0x00000002)  returns 0x00 (0000ms, 3232ms total)
T2878 003:674 JLINK_WriteReg(R3, 0x00000000)  returns 0x00 (0000ms, 3232ms total)
T2878 003:674 JLINK_WriteReg(R4, 0x00000000)  returns 0x00 (0000ms, 3232ms total)
T2878 003:674 JLINK_WriteReg(R5, 0x00000000)  returns 0x00 (0001ms, 3232ms total)
T2878 003:675 JLINK_WriteReg(R6, 0x00000000)  returns 0x00 (0000ms, 3233ms total)
T2878 003:675 JLINK_WriteReg(R7, 0x00000000)  returns 0x00 (0000ms, 3233ms total)
T2878 003:675 JLINK_WriteReg(R8, 0x00000000)  returns 0x00 (0000ms, 3233ms total)
T2878 003:675 JLINK_WriteReg(R9, 0x20000160)  returns 0x00 (0000ms, 3233ms total)
T2878 003:675 JLINK_WriteReg(R10, 0x00000000)  returns 0x00 (0000ms, 3233ms total)
T2878 003:675 JLINK_WriteReg(R11, 0x00000000)  returns 0x00 (0000ms, 3233ms total)
T2878 003:675 JLINK_WriteReg(R12, 0x00000000)  returns 0x00 (0000ms, 3233ms total)
T2878 003:675 JLINK_WriteReg(R13, 0x20000800)  returns 0x00 (0000ms, 3233ms total)
T2878 003:675 JLINK_WriteReg(R14, 0x20000001)  returns 0x00 (0000ms, 3233ms total)
T2878 003:675 JLINK_WriteReg(R15, 0x20000038)  returns 0x00 (0000ms, 3233ms total)
T2878 003:675 JLINK_WriteReg(XPSR, 0x01000000)  returns 0x00 (0000ms, 3233ms total)
T2878 003:675 JLINK_WriteReg(MSP, 0x20000800)  returns 0x00 (0000ms, 3233ms total)
T2878 003:675 JLINK_WriteReg(PSP, 0x20000800)  returns 0x00 (0000ms, 3233ms total)
T2878 003:675 JLINK_WriteReg(CFBP, 0x00000000)  returns 0x00 (0000ms, 3233ms total)
T2878 003:675 JLINK_SetBPEx(Addr = 0x20000000, Type = 0xFFFFFFF2) -- CPU_ReadMem(2 bytes @ 0x20000000)  returns 0x00000004 (0007ms, 3233ms total)
T2878 003:682 JLINK_Go() -- CPU_WriteMem(2 bytes @ 0x20000000) -- CPU_WriteMem(4 bytes @ 0xE0002008) -- CPU_WriteMem(4 bytes @ 0xE000200C) -- CPU_WriteMem(4 bytes @ 0xE0002010) -- CPU_WriteMem(4 bytes @ 0xE0002014) -- CPU_WriteMem(4 bytes @ 0xE0002018) -- CPU_WriteMem(4 bytes @ 0xE000201C) (0065ms, 3240ms total)
T2878 003:747 JLINK_IsHalted() -- CPU_ReadMem(2 bytes @ 0x20000000)  returns TRUE (0024ms, 3305ms total)
T2878 003:771 JLINK_ReadReg(R15)  returns 0x20000000 (0000ms, 3305ms total)
T2878 003:771 JLINK_ClrBPEx(BPHandle = 0x00000004)  returns 0x00 (0000ms, 3305ms total)
T2878 003:771 JLINK_ReadReg(R0)  returns 0x00000000 (0000ms, 3305ms total)
T2878 003:772 JLINK_WriteMem(0x20000164, 0x0400 Bytes, ...) -- Data:  48 2A 00 20 ED 02 00 08 F3 06 00 08 D9 02 00 08 ... -- CPU_WriteMem(1024 bytes @ 0x20000164)  returns 0x400 (0024ms, 3305ms total)
T2878 003:796 JLINK_WriteReg(R0, 0x08000000)  returns 0x00 (0000ms, 3329ms total)
T2878 003:796 JLINK_WriteReg(R1, 0x00000400)  returns 0x00 (0000ms, 3329ms total)
T2878 003:796 JLINK_WriteReg(R2, 0x20000164)  returns 0x00 (0000ms, 3329ms total)
T2878 003:796 JLINK_WriteReg(R3, 0x00000000)  returns 0x00 (0000ms, 3329ms total)
T2878 003:796 JLINK_WriteReg(R4, 0x00000000)  returns 0x00 (0000ms, 3329ms total)
T2878 003:796 JLINK_WriteReg(R5, 0x00000000)  returns 0x00 (0000ms, 3329ms total)
T2878 003:796 JLINK_WriteReg(R6, 0x00000000)  returns 0x00 (0001ms, 3329ms total)
T2878 003:797 JLINK_WriteReg(R7, 0x00000000)  returns 0x00 (0000ms, 3330ms total)
T2878 003:797 JLINK_WriteReg(R8, 0x00000000)  returns 0x00 (0000ms, 3330ms total)
T2878 003:797 JLINK_WriteReg(R9, 0x20000160)  returns 0x00 (0000ms, 3330ms total)
T2878 003:797 JLINK_WriteReg(R10, 0x00000000)  returns 0x00 (0000ms, 3330ms total)
T2878 003:797 JLINK_WriteReg(R11, 0x00000000)  returns 0x00 (0000ms, 3330ms total)
T2878 003:797 JLINK_WriteReg(R12, 0x00000000)  returns 0x00 (0000ms, 3330ms total)
T2878 003:797 JLINK_WriteReg(R13, 0x20000800)  returns 0x00 (0000ms, 3330ms total)
T2878 003:797 JLINK_WriteReg(R14, 0x20000001)  returns 0x00 (0000ms, 3330ms total)
T2878 003:797 JLINK_WriteReg(R15, 0x200000F4)  returns 0x00 (0000ms, 3330ms total)
T2878 003:797 JLINK_WriteReg(XPSR, 0x01000000)  returns 0x00 (0000ms, 3330ms total)
T2878 003:797 JLINK_WriteReg(MSP, 0x20000800)  returns 0x00 (0000ms, 3330ms total)
T2878 003:797 JLINK_WriteReg(PSP, 0x20000800)  returns 0x00 (0001ms, 3330ms total)
T2878 003:798 JLINK_WriteReg(CFBP, 0x00000000)  returns 0x00 (0000ms, 3331ms total)
T2878 003:798 JLINK_SetBPEx(Addr = 0x20000000, Type = 0xFFFFFFF2)  returns 0x00000005 (0000ms, 3331ms total)
T2878 003:798 JLINK_Go() -- CPU_WriteMem(4 bytes @ 0xE0002008) -- CPU_WriteMem(4 bytes @ 0xE000200C) -- CPU_WriteMem(4 bytes @ 0xE0002010) -- CPU_WriteMem(4 bytes @ 0xE0002014) -- CPU_WriteMem(4 bytes @ 0xE0002018) -- CPU_WriteMem(4 bytes @ 0xE000201C) (0057ms, 3331ms total)
T2878 003:855 JLINK_IsHalted()  returns FALSE (0007ms, 3388ms total)
T2878 003:912 JLINK_IsHalted() -- CPU_ReadMem(2 bytes @ 0x20000000)  returns TRUE (0022ms, 3388ms total)
T2878 003:934 JLINK_ReadReg(R15)  returns 0x20000000 (0007ms, 3388ms total)
T2878 003:941 JLINK_ClrBPEx(BPHandle = 0x00000005)  returns 0x00 (0000ms, 3395ms total)
T2878 003:941 JLINK_ReadReg(R0)  returns 0x00000000 (0000ms, 3395ms total)
T2878 003:941 JLINK_WriteMem(0x20000164, 0x0400 Bytes, ...) -- Data:  02 3B 48 BF 11 F8 01 2B 28 BF 20 F8 02 3B 48 BF ... -- CPU_WriteMem(1024 bytes @ 0x20000164)  returns 0x400 (0020ms, 3395ms total)
T2878 003:961 JLINK_WriteReg(R0, 0x08000400)  returns 0x00 (0000ms, 3415ms total)
T2878 003:961 JLINK_WriteReg(R1, 0x00000400)  returns 0x00 (0000ms, 3415ms total)
T2878 003:961 JLINK_WriteReg(R2, 0x20000164)  returns 0x00 (0000ms, 3415ms total)
T2878 003:961 JLINK_WriteReg(R3, 0x00000000)  returns 0x00 (0000ms, 3415ms total)
T2878 003:961 JLINK_WriteReg(R4, 0x00000000)  returns 0x00 (0000ms, 3415ms total)
T2878 003:961 JLINK_WriteReg(R5, 0x00000000)  returns 0x00 (0000ms, 3415ms total)
T2878 003:961 JLINK_WriteReg(R6, 0x00000000)  returns 0x00 (0000ms, 3415ms total)
T2878 003:961 JLINK_WriteReg(R7, 0x00000000)  returns 0x00 (0000ms, 3415ms total)
T2878 003:961 JLINK_WriteReg(R8, 0x00000000)  returns 0x00 (0000ms, 3415ms total)
T2878 003:961 JLINK_WriteReg(R9, 0x20000160)  returns 0x00 (0000ms, 3415ms total)
T2878 003:961 JLINK_WriteReg(R10, 0x00000000)  returns 0x00 (0001ms, 3415ms total)
T2878 003:962 JLINK_WriteReg(R11, 0x00000000)  returns 0x00 (0000ms, 3416ms total)
T2878 003:962 JLINK_WriteReg(R12, 0x00000000)  returns 0x00 (0000ms, 3416ms total)
T2878 003:962 JLINK_WriteReg(R13, 0x20000800)  returns 0x00 (0000ms, 3416ms total)
T2878 003:962 JLINK_WriteReg(R14, 0x20000001)  returns 0x00 (0000ms, 3416ms total)
T2878 003:962 JLINK_WriteReg(R15, 0x200000F4)  returns 0x00 (0000ms, 3416ms total)
T2878 003:962 JLINK_WriteReg(XPSR, 0x01000000)  returns 0x00 (0000ms, 3416ms total)
T2878 003:962 JLINK_WriteReg(MSP, 0x20000800)  returns 0x00 (0000ms, 3416ms total)
T2878 003:962 JLINK_WriteReg(PSP, 0x20000800)  returns 0x00 (0000ms, 3416ms total)
T2878 003:962 JLINK_WriteReg(CFBP, 0x00000000)  returns 0x00 (0000ms, 3416ms total)
T2878 003:962 JLINK_SetBPEx(Addr = 0x20000000, Type = 0xFFFFFFF2)  returns 0x00000006 (0000ms, 3416ms total)
T2878 003:962 JLINK_Go() -- CPU_WriteMem(4 bytes @ 0xE0002008) -- CPU_WriteMem(4 bytes @ 0xE000200C) -- CPU_WriteMem(4 bytes @ 0xE0002010) -- CPU_WriteMem(4 bytes @ 0xE0002014) -- CPU_WriteMem(4 bytes @ 0xE0002018) -- CPU_WriteMem(4 bytes @ 0xE000201C) (0057ms, 3416ms total)
T2878 004:019 JLINK_IsHalted()  returns FALSE (0009ms, 3473ms total)
T2878 004:078 JLINK_IsHalted() -- CPU_ReadMem(2 bytes @ 0x20000000)  returns TRUE (0026ms, 3473ms total)
T2878 004:104 JLINK_ReadReg(R15)  returns 0x20000000 (0000ms, 3473ms total)
T2878 004:104 JLINK_ClrBPEx(BPHandle = 0x00000006)  returns 0x00 (0000ms, 3473ms total)
T2878 004:104 JLINK_ReadReg(R0)  returns 0x00000000 (0000ms, 3473ms total)
T2878 004:104 JLINK_WriteMem(0x20000164, 0x0400 Bytes, ...) -- Data:  44 F2 04 00 FF F7 E6 FF 10 BD 10 B5 01 21 08 03 ... -- CPU_WriteMem(1024 bytes @ 0x20000164)  returns 0x400 (0019ms, 3473ms total)
T2878 004:123 JLINK_WriteReg(R0, 0x08000800)  returns 0x00 (0000ms, 3492ms total)
T2878 004:123 JLINK_WriteReg(R1, 0x00000400)  returns 0x00 (0000ms, 3492ms total)
T2878 004:123 JLINK_WriteReg(R2, 0x20000164)  returns 0x00 (0000ms, 3492ms total)
T2878 004:123 JLINK_WriteReg(R3, 0x00000000)  returns 0x00 (0000ms, 3492ms total)
T2878 004:123 JLINK_WriteReg(R4, 0x00000000)  returns 0x00 (0000ms, 3492ms total)
T2878 004:123 JLINK_WriteReg(R5, 0x00000000)  returns 0x00 (0000ms, 3492ms total)
T2878 004:123 JLINK_WriteReg(R6, 0x00000000)  returns 0x00 (0001ms, 3492ms total)
T2878 004:124 JLINK_WriteReg(R7, 0x00000000)  returns 0x00 (0000ms, 3493ms total)
T2878 004:124 JLINK_WriteReg(R8, 0x00000000)  returns 0x00 (0000ms, 3493ms total)
T2878 004:124 JLINK_WriteReg(R9, 0x20000160)  returns 0x00 (0000ms, 3493ms total)
T2878 004:124 JLINK_WriteReg(R10, 0x00000000)  returns 0x00 (0000ms, 3493ms total)
T2878 004:124 JLINK_WriteReg(R11, 0x00000000)  returns 0x00 (0000ms, 3493ms total)
T2878 004:124 JLINK_WriteReg(R12, 0x00000000)  returns 0x00 (0000ms, 3493ms total)
T2878 004:124 JLINK_WriteReg(R13, 0x20000800)  returns 0x00 (0000ms, 3493ms total)
T2878 004:124 JLINK_WriteReg(R14, 0x20000001)  returns 0x00 (0000ms, 3493ms total)
T2878 004:124 JLINK_WriteReg(R15, 0x200000F4)  returns 0x00 (0000ms, 3493ms total)
T2878 004:124 JLINK_WriteReg(XPSR, 0x01000000)  returns 0x00 (0000ms, 3493ms total)
T2878 004:124 JLINK_WriteReg(MSP, 0x20000800)  returns 0x00 (0000ms, 3493ms total)
T2878 004:124 JLINK_WriteReg(PSP, 0x20000800)  returns 0x00 (0000ms, 3493ms total)
T2878 004:124 JLINK_WriteReg(CFBP, 0x00000000)  returns 0x00 (0000ms, 3493ms total)
T2878 004:124 JLINK_SetBPEx(Addr = 0x20000000, Type = 0xFFFFFFF2)  returns 0x00000007 (0000ms, 3493ms total)
T2878 004:124 JLINK_Go() -- CPU_WriteMem(4 bytes @ 0xE0002008) -- CPU_WriteMem(4 bytes @ 0xE000200C) -- CPU_WriteMem(4 bytes @ 0xE0002010) -- CPU_WriteMem(4 bytes @ 0xE0002014) -- CPU_WriteMem(4 bytes @ 0xE0002018) -- CPU_WriteMem(4 bytes @ 0xE000201C) (0056ms, 3493ms total)
T2878 004:180 JLINK_IsHalted()  returns FALSE (0007ms, 3549ms total)
T2878 004:237 JLINK_IsHalted() -- CPU_ReadMem(2 bytes @ 0x20000000)  returns TRUE (0023ms, 3549ms total)
T2878 004:260 JLINK_ReadReg(R15)  returns 0x20000000 (0000ms, 3549ms total)
T2878 004:260 JLINK_ClrBPEx(BPHandle = 0x00000007)  returns 0x00 (0000ms, 3549ms total)
T2878 004:260 JLINK_ReadReg(R0)  returns 0x00000000 (0000ms, 3549ms total)
T2878 004:260 JLINK_WriteMem(0x20000164, 0x0400 Bytes, ...) -- Data:  1F 03 01 26 06 FA 03 F3 01 2D 02 D1 96 89 33 40 ... -- CPU_WriteMem(1024 bytes @ 0x20000164)  returns 0x400 (0019ms, 3549ms total)
T2878 004:279 JLINK_WriteReg(R0, 0x08000C00)  returns 0x00 (0000ms, 3568ms total)
T2878 004:279 JLINK_WriteReg(R1, 0x00000400)  returns 0x00 (0000ms, 3568ms total)
T2878 004:279 JLINK_WriteReg(R2, 0x20000164)  returns 0x00 (0000ms, 3568ms total)
T2878 004:279 JLINK_WriteReg(R3, 0x00000000)  returns 0x00 (0000ms, 3568ms total)
T2878 004:279 JLINK_WriteReg(R4, 0x00000000)  returns 0x00 (0000ms, 3568ms total)
T2878 004:279 JLINK_WriteReg(R5, 0x00000000)  returns 0x00 (0000ms, 3568ms total)
T2878 004:279 JLINK_WriteReg(R6, 0x00000000)  returns 0x00 (0001ms, 3568ms total)
T2878 004:280 JLINK_WriteReg(R7, 0x00000000)  returns 0x00 (0000ms, 3569ms total)
T2878 004:280 JLINK_WriteReg(R8, 0x00000000)  returns 0x00 (0000ms, 3569ms total)
T2878 004:280 JLINK_WriteReg(R9, 0x20000160)  returns 0x00 (0000ms, 3569ms total)
T2878 004:280 JLINK_WriteReg(R10, 0x00000000)  returns 0x00 (0000ms, 3569ms total)
T2878 004:280 JLINK_WriteReg(R11, 0x00000000)  returns 0x00 (0000ms, 3569ms total)
T2878 004:280 JLINK_WriteReg(R12, 0x00000000)  returns 0x00 (0000ms, 3569ms total)
T2878 004:280 JLINK_WriteReg(R13, 0x20000800)  returns 0x00 (0000ms, 3569ms total)
T2878 004:280 JLINK_WriteReg(R14, 0x20000001)  returns 0x00 (0000ms, 3569ms total)
T2878 004:280 JLINK_WriteReg(R15, 0x200000F4)  returns 0x00 (0000ms, 3569ms total)
T2878 004:280 JLINK_WriteReg(XPSR, 0x01000000)  returns 0x00 (0000ms, 3569ms total)
T2878 004:280 JLINK_WriteReg(MSP, 0x20000800)  returns 0x00 (0000ms, 3569ms total)
T2878 004:280 JLINK_WriteReg(PSP, 0x20000800)  returns 0x00 (0000ms, 3569ms total)
T2878 004:280 JLINK_WriteReg(CFBP, 0x00000000)  returns 0x00 (0000ms, 3569ms total)
T2878 004:280 JLINK_SetBPEx(Addr = 0x20000000, Type = 0xFFFFFFF2)  returns 0x00000008 (0000ms, 3569ms total)
T2878 004:280 JLINK_Go() -- CPU_WriteMem(4 bytes @ 0xE0002008) -- CPU_WriteMem(4 bytes @ 0xE000200C) -- CPU_WriteMem(4 bytes @ 0xE0002010) -- CPU_WriteMem(4 bytes @ 0xE0002014) -- CPU_WriteMem(4 bytes @ 0xE0002018) -- CPU_WriteMem(4 bytes @ 0xE000201C) (0059ms, 3569ms total)
T2878 004:339 JLINK_IsHalted()  returns FALSE (0007ms, 3628ms total)
T2878 004:398 JLINK_IsHalted() -- CPU_ReadMem(2 bytes @ 0x20000000)  returns TRUE (0024ms, 3628ms total)
T2878 004:422 JLINK_ReadReg(R15)  returns 0x20000000 (0000ms, 3628ms total)
T2878 004:422 JLINK_ClrBPEx(BPHandle = 0x00000008)  returns 0x00 (0000ms, 3628ms total)
T2878 004:422 JLINK_ReadReg(R0)  returns 0x00000000 (0000ms, 3628ms total)
T2878 004:422 JLINK_WriteMem(0x20000164, 0x0400 Bytes, ...) -- Data:  75 6E 63 74 69 6F 6E 3A 20 69 6E 76 61 6C 69 64 ... -- CPU_WriteMem(1024 bytes @ 0x20000164)  returns 0x400 (0021ms, 3628ms total)
T2878 004:450 JLINK_WriteReg(R0, 0x08001000)  returns 0x00 (0000ms, 3649ms total)
T2878 004:450 JLINK_WriteReg(R1, 0x00000400)  returns 0x00 (0000ms, 3649ms total)
T2878 004:450 JLINK_WriteReg(R2, 0x20000164)  returns 0x00 (0000ms, 3649ms total)
T2878 004:450 JLINK_WriteReg(R3, 0x00000000)  returns 0x00 (0000ms, 3649ms total)
T2878 004:450 JLINK_WriteReg(R4, 0x00000000)  returns 0x00 (0000ms, 3649ms total)
T2878 004:450 JLINK_WriteReg(R5, 0x00000000)  returns 0x00 (0000ms, 3649ms total)
T2878 004:450 JLINK_WriteReg(R6, 0x00000000)  returns 0x00 (0000ms, 3649ms total)
T2878 004:450 JLINK_WriteReg(R7, 0x00000000)  returns 0x00 (0000ms, 3649ms total)
T2878 004:450 JLINK_WriteReg(R8, 0x00000000)  returns 0x00 (0001ms, 3649ms total)
T2878 004:451 JLINK_WriteReg(R9, 0x20000160)  returns 0x00 (0000ms, 3650ms total)
T2878 004:451 JLINK_WriteReg(R10, 0x00000000)  returns 0x00 (0000ms, 3650ms total)
T2878 004:451 JLINK_WriteReg(R11, 0x00000000)  returns 0x00 (0000ms, 3650ms total)
T2878 004:451 JLINK_WriteReg(R12, 0x00000000)  returns 0x00 (0000ms, 3650ms total)
T2878 004:451 JLINK_WriteReg(R13, 0x20000800)  returns 0x00 (0000ms, 3650ms total)
T2878 004:451 JLINK_WriteReg(R14, 0x20000001)  returns 0x00 (0000ms, 3650ms total)
T2878 004:451 JLINK_WriteReg(R15, 0x200000F4)  returns 0x00 (0000ms, 3650ms total)
T2878 004:451 JLINK_WriteReg(XPSR, 0x01000000)  returns 0x00 (0000ms, 3650ms total)
T2878 004:451 JLINK_WriteReg(MSP, 0x20000800)  returns 0x00 (0000ms, 3650ms total)
T2878 004:451 JLINK_WriteReg(PSP, 0x20000800)  returns 0x00 (0000ms, 3650ms total)
T2878 004:451 JLINK_WriteReg(CFBP, 0x00000000)  returns 0x00 (0000ms, 3650ms total)
T2878 004:451 JLINK_SetBPEx(Addr = 0x20000000, Type = 0xFFFFFFF2)  returns 0x00000009 (0000ms, 3650ms total)
T2878 004:451 JLINK_Go() -- CPU_WriteMem(4 bytes @ 0xE0002008) -- CPU_WriteMem(4 bytes @ 0xE000200C) -- CPU_WriteMem(4 bytes @ 0xE0002010) -- CPU_WriteMem(4 bytes @ 0xE0002014) -- CPU_WriteMem(4 bytes @ 0xE0002018) -- CPU_WriteMem(4 bytes @ 0xE000201C) (0061ms, 3650ms total)
T2878 004:512 JLINK_IsHalted()  returns FALSE (0007ms, 3711ms total)
T2878 004:569 JLINK_IsHalted() -- CPU_ReadMem(2 bytes @ 0x20000000)  returns TRUE (0023ms, 3711ms total)
T2878 004:592 JLINK_ReadReg(R15)  returns 0x20000000 (0000ms, 3711ms total)
T2878 004:592 JLINK_ClrBPEx(BPHandle = 0x00000009)  returns 0x00 (0000ms, 3711ms total)
T2878 004:592 JLINK_ReadReg(R0)  returns 0x00000000 (0000ms, 3711ms total)
T2878 004:592 JLINK_WriteMem(0x20000164, 0x0400 Bytes, ...) -- Data:  40 F2 DA 51 43 A0 0B F0 51 F9 00 BF E0 7C 20 B9 ... -- CPU_WriteMem(1024 bytes @ 0x20000164)  returns 0x400 (0019ms, 3711ms total)
T2878 004:611 JLINK_WriteReg(R0, 0x08001400)  returns 0x00 (0000ms, 3730ms total)
T2878 004:611 JLINK_WriteReg(R1, 0x00000400)  returns 0x00 (0000ms, 3730ms total)
T2878 004:611 JLINK_WriteReg(R2, 0x20000164)  returns 0x00 (0000ms, 3730ms total)
T2878 004:611 JLINK_WriteReg(R3, 0x00000000)  returns 0x00 (0000ms, 3730ms total)
T2878 004:611 JLINK_WriteReg(R4, 0x00000000)  returns 0x00 (0000ms, 3730ms total)
T2878 004:611 JLINK_WriteReg(R5, 0x00000000)  returns 0x00 (0000ms, 3730ms total)
T2878 004:611 JLINK_WriteReg(R6, 0x00000000)  returns 0x00 (0001ms, 3730ms total)
T2878 004:612 JLINK_WriteReg(R7, 0x00000000)  returns 0x00 (0000ms, 3731ms total)
T2878 004:612 JLINK_WriteReg(R8, 0x00000000)  returns 0x00 (0000ms, 3731ms total)
T2878 004:612 JLINK_WriteReg(R9, 0x20000160)  returns 0x00 (0000ms, 3731ms total)
T2878 004:612 JLINK_WriteReg(R10, 0x00000000)  returns 0x00 (0000ms, 3731ms total)
T2878 004:612 JLINK_WriteReg(R11, 0x00000000)  returns 0x00 (0000ms, 3731ms total)
T2878 004:612 JLINK_WriteReg(R12, 0x00000000)  returns 0x00 (0000ms, 3731ms total)
T2878 004:612 JLINK_WriteReg(R13, 0x20000800)  returns 0x00 (0000ms, 3731ms total)
T2878 004:612 JLINK_WriteReg(R14, 0x20000001)  returns 0x00 (0000ms, 3731ms total)
T2878 004:612 JLINK_WriteReg(R15, 0x200000F4)  returns 0x00 (0000ms, 3731ms total)
T2878 004:612 JLINK_WriteReg(XPSR, 0x01000000)  returns 0x00 (0000ms, 3731ms total)
T2878 004:612 JLINK_WriteReg(MSP, 0x20000800)  returns 0x00 (0000ms, 3731ms total)
T2878 004:612 JLINK_WriteReg(PSP, 0x20000800)  returns 0x00 (0000ms, 3731ms total)
T2878 004:612 JLINK_WriteReg(CFBP, 0x00000000)  returns 0x00 (0000ms, 3731ms total)
T2878 004:612 JLINK_SetBPEx(Addr = 0x20000000, Type = 0xFFFFFFF2)  returns 0x0000000A (0000ms, 3731ms total)
T2878 004:612 JLINK_Go() -- CPU_WriteMem(4 bytes @ 0xE0002008) -- CPU_WriteMem(4 bytes @ 0xE000200C) -- CPU_WriteMem(4 bytes @ 0xE0002010) -- CPU_WriteMem(4 bytes @ 0xE0002014) -- CPU_WriteMem(4 bytes @ 0xE0002018) -- CPU_WriteMem(4 bytes @ 0xE000201C) (0059ms, 3731ms total)
T2878 004:671 JLINK_IsHalted()  returns FALSE (0009ms, 3790ms total)
T2878 004:730 JLINK_IsHalted() -- CPU_ReadMem(2 bytes @ 0x20000000)  returns TRUE (0025ms, 3790ms total)
T2878 004:755 JLINK_ReadReg(R15)  returns 0x20000000 (0000ms, 3790ms total)
T2878 004:755 JLINK_ClrBPEx(BPHandle = 0x0000000A)  returns 0x00 (0000ms, 3790ms total)
T2878 004:755 JLINK_ReadReg(R0)  returns 0x00000000 (0000ms, 3790ms total)
T2878 004:755 JLINK_WriteMem(0x20000164, 0x0400 Bytes, ...) -- Data:  20 46 00 F0 C3 F9 20 46 00 F0 9E FA A2 8B F0 32 ... -- CPU_WriteMem(1024 bytes @ 0x20000164)  returns 0x400 (0020ms, 3790ms total)
T2878 004:775 JLINK_WriteReg(R0, 0x08001800)  returns 0x00 (0000ms, 3810ms total)
T2878 004:775 JLINK_WriteReg(R1, 0x00000400)  returns 0x00 (0000ms, 3810ms total)
T2878 004:775 JLINK_WriteReg(R2, 0x20000164)  returns 0x00 (0000ms, 3810ms total)
T2878 004:775 JLINK_WriteReg(R3, 0x00000000)  returns 0x00 (0000ms, 3810ms total)
T2878 004:775 JLINK_WriteReg(R4, 0x00000000)  returns 0x00 (0000ms, 3810ms total)
T2878 004:775 JLINK_WriteReg(R5, 0x00000000)  returns 0x00 (0000ms, 3810ms total)
T2878 004:775 JLINK_WriteReg(R6, 0x00000000)  returns 0x00 (0000ms, 3810ms total)
T2878 004:776 JLINK_WriteReg(R7, 0x00000000)  returns 0x00 (0000ms, 3811ms total)
T2878 004:776 JLINK_WriteReg(R8, 0x00000000)  returns 0x00 (0000ms, 3811ms total)
T2878 004:776 JLINK_WriteReg(R9, 0x20000160)  returns 0x00 (0000ms, 3811ms total)
T2878 004:776 JLINK_WriteReg(R10, 0x00000000)  returns 0x00 (0000ms, 3811ms total)
T2878 004:776 JLINK_WriteReg(R11, 0x00000000)  returns 0x00 (0000ms, 3811ms total)
T2878 004:776 JLINK_WriteReg(R12, 0x00000000)  returns 0x00 (0001ms, 3811ms total)
T2878 004:777 JLINK_WriteReg(R13, 0x20000800)  returns 0x00 (0000ms, 3812ms total)
T2878 004:777 JLINK_WriteReg(R14, 0x20000001)  returns 0x00 (0000ms, 3812ms total)
T2878 004:777 JLINK_WriteReg(R15, 0x200000F4)  returns 0x00 (0000ms, 3812ms total)
T2878 004:777 JLINK_WriteReg(XPSR, 0x01000000)  returns 0x00 (0000ms, 3812ms total)
T2878 004:777 JLINK_WriteReg(MSP, 0x20000800)  returns 0x00 (0000ms, 3812ms total)
T2878 004:777 JLINK_WriteReg(PSP, 0x20000800)  returns 0x00 (0000ms, 3812ms total)
T2878 004:777 JLINK_WriteReg(CFBP, 0x00000000)  returns 0x00 (0000ms, 3812ms total)
T2878 004:777 JLINK_SetBPEx(Addr = 0x20000000, Type = 0xFFFFFFF2)  returns 0x0000000B (0000ms, 3812ms total)
T2878 004:777 JLINK_Go() -- CPU_WriteMem(4 bytes @ 0xE0002008) -- CPU_WriteMem(4 bytes @ 0xE000200C) -- CPU_WriteMem(4 bytes @ 0xE0002010) -- CPU_WriteMem(4 bytes @ 0xE0002014) -- CPU_WriteMem(4 bytes @ 0xE0002018) -- CPU_WriteMem(4 bytes @ 0xE000201C) (0060ms, 3812ms total)
T2878 004:837 JLINK_IsHalted()  returns FALSE (0007ms, 3872ms total)
T2878 004:894 JLINK_IsHalted() -- CPU_ReadMem(2 bytes @ 0x20000000)  returns TRUE (0024ms, 3872ms total)
T2878 004:918 JLINK_ReadReg(R15)  returns 0x20000000 (0000ms, 3872ms total)
T2878 004:918 JLINK_ClrBPEx(BPHandle = 0x0000000B)  returns 0x00 (0000ms, 3872ms total)
T2878 004:918 JLINK_ReadReg(R0)  returns 0x00000000 (0000ms, 3872ms total)
T2878 004:918 JLINK_WriteMem(0x20000164, 0x0400 Bytes, ...) -- Data:  5C 6E 65 74 5C 6C 77 69 70 5C 73 72 63 5C 63 6F ... -- CPU_WriteMem(1024 bytes @ 0x20000164)  returns 0x400 (0019ms, 3872ms total)
T2878 004:937 JLINK_WriteReg(R0, 0x08001C00)  returns 0x00 (0007ms, 3891ms total)
T2878 004:944 JLINK_WriteReg(R1, 0x00000400)  returns 0x00 (0000ms, 3898ms total)
T2878 004:944 JLINK_WriteReg(R2, 0x20000164)  returns 0x00 (0000ms, 3898ms total)
T2878 004:944 JLINK_WriteReg(R3, 0x00000000)  returns 0x00 (0000ms, 3898ms total)
T2878 004:944 JLINK_WriteReg(R4, 0x00000000)  returns 0x00 (0000ms, 3898ms total)
T2878 004:944 JLINK_WriteReg(R5, 0x00000000)  returns 0x00 (0000ms, 3898ms total)
T2878 004:944 JLINK_WriteReg(R6, 0x00000000)  returns 0x00 (0000ms, 3898ms total)
T2878 004:944 JLINK_WriteReg(R7, 0x00000000)  returns 0x00 (0000ms, 3898ms total)
T2878 004:945 JLINK_WriteReg(R8, 0x00000000)  returns 0x00 (0000ms, 3899ms total)
T2878 004:945 JLINK_WriteReg(R9, 0x20000160)  returns 0x00 (0000ms, 3899ms total)
T2878 004:945 JLINK_WriteReg(R10, 0x00000000)  returns 0x00 (0000ms, 3899ms total)
T2878 004:945 JLINK_WriteReg(R11, 0x00000000)  returns 0x00 (0000ms, 3899ms total)
T2878 004:945 JLINK_WriteReg(R12, 0x00000000)  returns 0x00 (0000ms, 3899ms total)
T2878 004:945 JLINK_WriteReg(R13, 0x20000800)  returns 0x00 (0000ms, 3899ms total)
T2878 004:945 JLINK_WriteReg(R14, 0x20000001)  returns 0x00 (0000ms, 3899ms total)
T2878 004:945 JLINK_WriteReg(R15, 0x200000F4)  returns 0x00 (0000ms, 3899ms total)
T2878 004:945 JLINK_WriteReg(XPSR, 0x01000000)  returns 0x00 (0000ms, 3899ms total)
T2878 004:945 JLINK_WriteReg(MSP, 0x20000800)  returns 0x00 (0000ms, 3899ms total)
T2878 004:945 JLINK_WriteReg(PSP, 0x20000800)  returns 0x00 (0000ms, 3899ms total)
T2878 004:945 JLINK_WriteReg(CFBP, 0x00000000)  returns 0x00 (0000ms, 3899ms total)
T2878 004:945 JLINK_SetBPEx(Addr = 0x20000000, Type = 0xFFFFFFF2)  returns 0x0000000C (0000ms, 3899ms total)
T2878 004:945 JLINK_Go() -- CPU_WriteMem(4 bytes @ 0xE0002008) -- CPU_WriteMem(4 bytes @ 0xE000200C) -- CPU_WriteMem(4 bytes @ 0xE0002010) -- CPU_WriteMem(4 bytes @ 0xE0002014) -- CPU_WriteMem(4 bytes @ 0xE0002018) -- CPU_WriteMem(4 bytes @ 0xE000201C) (0062ms, 3899ms total)
T2878 005:007 JLINK_IsHalted()  returns FALSE (0007ms, 3961ms total)
T2878 005:064 JLINK_IsHalted() -- CPU_ReadMem(2 bytes @ 0x20000000)  returns TRUE (0025ms, 3961ms total)
T2878 005:089 JLINK_ReadReg(R15)  returns 0x20000000 (0000ms, 3961ms total)
T2878 005:089 JLINK_ClrBPEx(BPHandle = 0x0000000C)  returns 0x00 (0000ms, 3961ms total)
T2878 005:089 JLINK_ReadReg(R0)  returns 0x00000000 (0000ms, 3961ms total)
T2878 005:089 JLINK_WriteMem(0x20000164, 0x0400 Bytes, ...) -- Data:  CB F8 40 F2 62 51 44 A0 0A F0 50 FB 00 BF 68 89 ... -- CPU_WriteMem(1024 bytes @ 0x20000164)  returns 0x400 (0019ms, 3961ms total)
T2878 005:108 JLINK_WriteReg(R0, 0x08002000)  returns 0x00 (0000ms, 3980ms total)
T2878 005:108 JLINK_WriteReg(R1, 0x00000400)  returns 0x00 (0000ms, 3980ms total)
T2878 005:108 JLINK_WriteReg(R2, 0x20000164)  returns 0x00 (0000ms, 3980ms total)
T2878 005:108 JLINK_WriteReg(R3, 0x00000000)  returns 0x00 (0000ms, 3980ms total)
T2878 005:108 JLINK_WriteReg(R4, 0x00000000)  returns 0x00 (0000ms, 3980ms total)
T2878 005:108 JLINK_WriteReg(R5, 0x00000000)  returns 0x00 (0000ms, 3980ms total)
T2878 005:108 JLINK_WriteReg(R6, 0x00000000)  returns 0x00 (0000ms, 3980ms total)
T2878 005:109 JLINK_WriteReg(R7, 0x00000000)  returns 0x00 (0000ms, 3981ms total)
T2878 005:109 JLINK_WriteReg(R8, 0x00000000)  returns 0x00 (0000ms, 3981ms total)
T2878 005:109 JLINK_WriteReg(R9, 0x20000160)  returns 0x00 (0000ms, 3981ms total)
T2878 005:109 JLINK_WriteReg(R10, 0x00000000)  returns 0x00 (0000ms, 3981ms total)
T2878 005:109 JLINK_WriteReg(R11, 0x00000000)  returns 0x00 (0000ms, 3981ms total)
T2878 005:109 JLINK_WriteReg(R12, 0x00000000)  returns 0x00 (0000ms, 3981ms total)
T2878 005:109 JLINK_WriteReg(R13, 0x20000800)  returns 0x00 (0000ms, 3981ms total)
T2878 005:109 JLINK_WriteReg(R14, 0x20000001)  returns 0x00 (0000ms, 3981ms total)
T2878 005:109 JLINK_WriteReg(R15, 0x200000F4)  returns 0x00 (0000ms, 3981ms total)
T2878 005:109 JLINK_WriteReg(XPSR, 0x01000000)  returns 0x00 (0000ms, 3981ms total)
T2878 005:109 JLINK_WriteReg(MSP, 0x20000800)  returns 0x00 (0000ms, 3981ms total)
T2878 005:109 JLINK_WriteReg(PSP, 0x20000800)  returns 0x00 (0000ms, 3981ms total)
T2878 005:109 JLINK_WriteReg(CFBP, 0x00000000)  returns 0x00 (0000ms, 3981ms total)
T2878 005:109 JLINK_SetBPEx(Addr = 0x20000000, Type = 0xFFFFFFF2)  returns 0x0000000D (0000ms, 3981ms total)
T2878 005:109 JLINK_Go() -- CPU_WriteMem(4 bytes @ 0xE0002008) -- CPU_WriteMem(4 bytes @ 0xE000200C) -- CPU_WriteMem(4 bytes @ 0xE0002010) -- CPU_WriteMem(4 bytes @ 0xE0002014) -- CPU_WriteMem(4 bytes @ 0xE0002018) -- CPU_WriteMem(4 bytes @ 0xE000201C) (0059ms, 3981ms total)
T2878 005:168 JLINK_IsHalted()  returns FALSE (0007ms, 4040ms total)
T2878 005:225 JLINK_IsHalted() -- CPU_ReadMem(2 bytes @ 0x20000000)  returns TRUE (0023ms, 4040ms total)
T2878 005:248 JLINK_ReadReg(R15)  returns 0x20000000 (0000ms, 4040ms total)
T2878 005:248 JLINK_ClrBPEx(BPHandle = 0x0000000D)  returns 0x00 (0000ms, 4040ms total)
T2878 005:248 JLINK_ReadReg(R0)  returns 0x00000000 (0000ms, 4040ms total)
T2878 005:248 JLINK_WriteMem(0x20000164, 0x0400 Bytes, ...) -- Data:  6A 21 27 A0 0A F0 52 F9 00 BF 00 BF A0 68 18 B9 ... -- CPU_WriteMem(1024 bytes @ 0x20000164)  returns 0x400 (0019ms, 4040ms total)
T2878 005:267 JLINK_WriteReg(R0, 0x08002400)  returns 0x00 (0000ms, 4059ms total)
T2878 005:267 JLINK_WriteReg(R1, 0x00000400)  returns 0x00 (0000ms, 4059ms total)
T2878 005:267 JLINK_WriteReg(R2, 0x20000164)  returns 0x00 (0000ms, 4059ms total)
T2878 005:267 JLINK_WriteReg(R3, 0x00000000)  returns 0x00 (0000ms, 4059ms total)
T2878 005:267 JLINK_WriteReg(R4, 0x00000000)  returns 0x00 (0000ms, 4059ms total)
T2878 005:267 JLINK_WriteReg(R5, 0x00000000)  returns 0x00 (0000ms, 4059ms total)
T2878 005:267 JLINK_WriteReg(R6, 0x00000000)  returns 0x00 (0000ms, 4059ms total)
T2878 005:268 JLINK_WriteReg(R7, 0x00000000)  returns 0x00 (0000ms, 4060ms total)
T2878 005:268 JLINK_WriteReg(R8, 0x00000000)  returns 0x00 (0000ms, 4060ms total)
T2878 005:268 JLINK_WriteReg(R9, 0x20000160)  returns 0x00 (0000ms, 4060ms total)
T2878 005:268 JLINK_WriteReg(R10, 0x00000000)  returns 0x00 (0000ms, 4060ms total)
T2878 005:268 JLINK_WriteReg(R11, 0x00000000)  returns 0x00 (0000ms, 4060ms total)
T2878 005:268 JLINK_WriteReg(R12, 0x00000000)  returns 0x00 (0000ms, 4060ms total)
T2878 005:268 JLINK_WriteReg(R13, 0x20000800)  returns 0x00 (0000ms, 4060ms total)
T2878 005:268 JLINK_WriteReg(R14, 0x20000001)  returns 0x00 (0000ms, 4060ms total)
T2878 005:268 JLINK_WriteReg(R15, 0x200000F4)  returns 0x00 (0000ms, 4060ms total)
T2878 005:268 JLINK_WriteReg(XPSR, 0x01000000)  returns 0x00 (0000ms, 4060ms total)
T2878 005:268 JLINK_WriteReg(MSP, 0x20000800)  returns 0x00 (0000ms, 4060ms total)
T2878 005:268 JLINK_WriteReg(PSP, 0x20000800)  returns 0x00 (0000ms, 4060ms total)
T2878 005:268 JLINK_WriteReg(CFBP, 0x00000000)  returns 0x00 (0000ms, 4060ms total)
T2878 005:268 JLINK_SetBPEx(Addr = 0x20000000, Type = 0xFFFFFFF2)  returns 0x0000000E (0000ms, 4060ms total)
T2878 005:268 JLINK_Go() -- CPU_WriteMem(4 bytes @ 0xE0002008) -- CPU_WriteMem(4 bytes @ 0xE000200C) -- CPU_WriteMem(4 bytes @ 0xE0002010) -- CPU_WriteMem(4 bytes @ 0xE0002014) -- CPU_WriteMem(4 bytes @ 0xE0002018) -- CPU_WriteMem(4 bytes @ 0xE000201C) (0058ms, 4060ms total)
T2878 005:326 JLINK_IsHalted()  returns FALSE (0009ms, 4118ms total)
T2878 005:385 JLINK_IsHalted() -- CPU_ReadMem(2 bytes @ 0x20000000)  returns TRUE (0024ms, 4118ms total)
T2878 005:409 JLINK_ReadReg(R15)  returns 0x20000000 (0000ms, 4118ms total)
T2878 005:409 JLINK_ClrBPEx(BPHandle = 0x0000000E)  returns 0x00 (0000ms, 4118ms total)
T2878 005:409 JLINK_ReadReg(R0)  returns 0x00000000 (0000ms, 4118ms total)
T2878 005:409 JLINK_WriteMem(0x20000164, 0x0400 Bytes, ...) -- Data:  68 63 70 2D 3E 6F 70 74 69 6F 6E 73 5F 69 6E 5F ... -- CPU_WriteMem(1024 bytes @ 0x20000164)  returns 0x400 (0019ms, 4118ms total)
T2878 005:428 JLINK_WriteReg(R0, 0x08002800)  returns 0x00 (0000ms, 4137ms total)
T2878 005:428 JLINK_WriteReg(R1, 0x00000400)  returns 0x00 (0000ms, 4137ms total)
T2878 005:428 JLINK_WriteReg(R2, 0x20000164)  returns 0x00 (0000ms, 4137ms total)
T2878 005:428 JLINK_WriteReg(R3, 0x00000000)  returns 0x00 (0000ms, 4137ms total)
T2878 005:428 JLINK_WriteReg(R4, 0x00000000)  returns 0x00 (0000ms, 4137ms total)
T2878 005:428 JLINK_WriteReg(R5, 0x00000000)  returns 0x00 (0000ms, 4137ms total)
T2878 005:428 JLINK_WriteReg(R6, 0x00000000)  returns 0x00 (0000ms, 4137ms total)
T2878 005:429 JLINK_WriteReg(R7, 0x00000000)  returns 0x00 (0000ms, 4137ms total)
T2878 005:429 JLINK_WriteReg(R8, 0x00000000)  returns 0x00 (0000ms, 4137ms total)
T2878 005:429 JLINK_WriteReg(R9, 0x20000160)  returns 0x00 (0000ms, 4137ms total)
T2878 005:429 JLINK_WriteReg(R10, 0x00000000)  returns 0x00 (0000ms, 4137ms total)
T2878 005:429 JLINK_WriteReg(R11, 0x00000000)  returns 0x00 (0000ms, 4137ms total)
T2878 005:429 JLINK_WriteReg(R12, 0x00000000)  returns 0x00 (0000ms, 4137ms total)
T2878 005:429 JLINK_WriteReg(R13, 0x20000800)  returns 0x00 (0000ms, 4137ms total)
T2878 005:429 JLINK_WriteReg(R14, 0x20000001)  returns 0x00 (0000ms, 4137ms total)
T2878 005:429 JLINK_WriteReg(R15, 0x200000F4)  returns 0x00 (0000ms, 4137ms total)
T2878 005:429 JLINK_WriteReg(XPSR, 0x01000000)  returns 0x00 (0000ms, 4137ms total)
T2878 005:429 JLINK_WriteReg(MSP, 0x20000800)  returns 0x00 (0000ms, 4137ms total)
T2878 005:429 JLINK_WriteReg(PSP, 0x20000800)  returns 0x00 (0000ms, 4137ms total)
T2878 005:429 JLINK_WriteReg(CFBP, 0x00000000)  returns 0x00 (0000ms, 4137ms total)
T2878 005:429 JLINK_SetBPEx(Addr = 0x20000000, Type = 0xFFFFFFF2)  returns 0x0000000F (0000ms, 4137ms total)
T2878 005:429 JLINK_Go() -- CPU_WriteMem(4 bytes @ 0xE0002008) -- CPU_WriteMem(4 bytes @ 0xE000200C) -- CPU_WriteMem(4 bytes @ 0xE0002010) -- CPU_WriteMem(4 bytes @ 0xE0002014) -- CPU_WriteMem(4 bytes @ 0xE0002018) -- CPU_WriteMem(4 bytes @ 0xE000201C) (0062ms, 4137ms total)
T2878 005:498 JLINK_IsHalted()  returns FALSE (0007ms, 4199ms total)
T2878 005:555 JLINK_IsHalted() -- CPU_ReadMem(2 bytes @ 0x20000000)  returns TRUE (0024ms, 4199ms total)
T2878 005:579 JLINK_ReadReg(R15)  returns 0x20000000 (0000ms, 4199ms total)
T2878 005:579 JLINK_ClrBPEx(BPHandle = 0x0000000F)  returns 0x00 (0000ms, 4199ms total)
T2878 005:579 JLINK_ReadReg(R0)  returns 0x00000000 (0000ms, 4199ms total)
T2878 005:579 JLINK_WriteMem(0x20000164, 0x0400 Bytes, ...) -- Data:  09 F0 54 FD 00 BF 00 22 4F F4 88 71 10 46 05 F0 ... -- CPU_WriteMem(1024 bytes @ 0x20000164)  returns 0x400 (0019ms, 4199ms total)
T2878 005:598 JLINK_WriteReg(R0, 0x08002C00)  returns 0x00 (0000ms, 4218ms total)
T2878 005:598 JLINK_WriteReg(R1, 0x00000400)  returns 0x00 (0000ms, 4218ms total)
T2878 005:598 JLINK_WriteReg(R2, 0x20000164)  returns 0x00 (0000ms, 4218ms total)
T2878 005:598 JLINK_WriteReg(R3, 0x00000000)  returns 0x00 (0000ms, 4218ms total)
T2878 005:598 JLINK_WriteReg(R4, 0x00000000)  returns 0x00 (0000ms, 4218ms total)
T2878 005:598 JLINK_WriteReg(R5, 0x00000000)  returns 0x00 (0000ms, 4218ms total)
T2878 005:598 JLINK_WriteReg(R6, 0x00000000)  returns 0x00 (0000ms, 4218ms total)
T2878 005:598 JLINK_WriteReg(R7, 0x00000000)  returns 0x00 (0000ms, 4218ms total)
T2878 005:598 JLINK_WriteReg(R8, 0x00000000)  returns 0x00 (0001ms, 4218ms total)
T2878 005:599 JLINK_WriteReg(R9, 0x20000160)  returns 0x00 (0000ms, 4219ms total)
T2878 005:599 JLINK_WriteReg(R10, 0x00000000)  returns 0x00 (0000ms, 4219ms total)
T2878 005:599 JLINK_WriteReg(R11, 0x00000000)  returns 0x00 (0000ms, 4219ms total)
T2878 005:599 JLINK_WriteReg(R12, 0x00000000)  returns 0x00 (0000ms, 4219ms total)
T2878 005:599 JLINK_WriteReg(R13, 0x20000800)  returns 0x00 (0000ms, 4219ms total)
T2878 005:599 JLINK_WriteReg(R14, 0x20000001)  returns 0x00 (0000ms, 4219ms total)
T2878 005:599 JLINK_WriteReg(R15, 0x200000F4)  returns 0x00 (0000ms, 4219ms total)
T2878 005:599 JLINK_WriteReg(XPSR, 0x01000000)  returns 0x00 (0000ms, 4219ms total)
T2878 005:599 JLINK_WriteReg(MSP, 0x20000800)  returns 0x00 (0000ms, 4219ms total)
T2878 005:599 JLINK_WriteReg(PSP, 0x20000800)  returns 0x00 (0000ms, 4219ms total)
T2878 005:600 JLINK_WriteReg(CFBP, 0x00000000)  returns 0x00 (0000ms, 4220ms total)
T2878 005:600 JLINK_SetBPEx(Addr = 0x20000000, Type = 0xFFFFFFF2)  returns 0x00000010 (0000ms, 4220ms total)
T2878 005:600 JLINK_Go() -- CPU_WriteMem(4 bytes @ 0xE0002008) -- CPU_WriteMem(4 bytes @ 0xE000200C) -- CPU_WriteMem(4 bytes @ 0xE0002010) -- CPU_WriteMem(4 bytes @ 0xE0002014) -- CPU_WriteMem(4 bytes @ 0xE0002018) -- CPU_WriteMem(4 bytes @ 0xE000201C) (0058ms, 4220ms total)
T2878 005:658 JLINK_IsHalted()  returns FALSE (0009ms, 4278ms total)
T2878 005:717 JLINK_IsHalted() -- CPU_ReadMem(2 bytes @ 0x20000000)  returns TRUE (0024ms, 4278ms total)
T2878 005:741 JLINK_ReadReg(R15)  returns 0x20000000 (0000ms, 4278ms total)
T2878 005:741 JLINK_ClrBPEx(BPHandle = 0x00000010)  returns 0x00 (0000ms, 4278ms total)
T2878 005:741 JLINK_ReadReg(R0)  returns 0x00000000 (0000ms, 4278ms total)
T2878 005:741 JLINK_WriteMem(0x20000164, 0x0400 Bytes, ...) -- Data:  20 6E 6F 74 20 66 61 69 6C 21 00 00 75 C4 00 08 ... -- CPU_WriteMem(1024 bytes @ 0x20000164)  returns 0x400 (0019ms, 4278ms total)
T2878 005:760 JLINK_WriteReg(R0, 0x08003000)  returns 0x00 (0000ms, 4297ms total)
T2878 005:760 JLINK_WriteReg(R1, 0x00000400)  returns 0x00 (0000ms, 4297ms total)
T2878 005:760 JLINK_WriteReg(R2, 0x20000164)  returns 0x00 (0000ms, 4297ms total)
T2878 005:760 JLINK_WriteReg(R3, 0x00000000)  returns 0x00 (0000ms, 4297ms total)
T2878 005:760 JLINK_WriteReg(R4, 0x00000000)  returns 0x00 (0000ms, 4297ms total)
T2878 005:760 JLINK_WriteReg(R5, 0x00000000)  returns 0x00 (0001ms, 4297ms total)
T2878 005:761 JLINK_WriteReg(R6, 0x00000000)  returns 0x00 (0000ms, 4298ms total)
T2878 005:761 JLINK_WriteReg(R7, 0x00000000)  returns 0x00 (0000ms, 4298ms total)
T2878 005:761 JLINK_WriteReg(R8, 0x00000000)  returns 0x00 (0000ms, 4298ms total)
T2878 005:761 JLINK_WriteReg(R9, 0x20000160)  returns 0x00 (0000ms, 4298ms total)
T2878 005:761 JLINK_WriteReg(R10, 0x00000000)  returns 0x00 (0000ms, 4298ms total)
T2878 005:761 JLINK_WriteReg(R11, 0x00000000)  returns 0x00 (0000ms, 4298ms total)
T2878 005:761 JLINK_WriteReg(R12, 0x00000000)  returns 0x00 (0000ms, 4298ms total)
T2878 005:761 JLINK_WriteReg(R13, 0x20000800)  returns 0x00 (0000ms, 4298ms total)
T2878 005:761 JLINK_WriteReg(R14, 0x20000001)  returns 0x00 (0000ms, 4298ms total)
T2878 005:761 JLINK_WriteReg(R15, 0x200000F4)  returns 0x00 (0000ms, 4298ms total)
T2878 005:761 JLINK_WriteReg(XPSR, 0x01000000)  returns 0x00 (0000ms, 4298ms total)
T2878 005:761 JLINK_WriteReg(MSP, 0x20000800)  returns 0x00 (0000ms, 4298ms total)
T2878 005:761 JLINK_WriteReg(PSP, 0x20000800)  returns 0x00 (0000ms, 4298ms total)
T2878 005:761 JLINK_WriteReg(CFBP, 0x00000000)  returns 0x00 (0000ms, 4298ms total)
T2878 005:762 JLINK_SetBPEx(Addr = 0x20000000, Type = 0xFFFFFFF2)  returns 0x00000011 (0000ms, 4299ms total)
T2878 005:762 JLINK_Go() -- CPU_WriteMem(4 bytes @ 0xE0002008) -- CPU_WriteMem(4 bytes @ 0xE000200C) -- CPU_WriteMem(4 bytes @ 0xE0002010) -- CPU_WriteMem(4 bytes @ 0xE0002014) -- CPU_WriteMem(4 bytes @ 0xE0002018) -- CPU_WriteMem(4 bytes @ 0xE000201C) (0056ms, 4299ms total)
T2878 005:818 JLINK_IsHalted()  returns FALSE (0007ms, 4355ms total)
T2878 005:875 JLINK_IsHalted() -- CPU_ReadMem(2 bytes @ 0x20000000)  returns TRUE (0025ms, 4355ms total)
T2878 005:900 JLINK_ReadReg(R15)  returns 0x20000000 (0000ms, 4355ms total)
T2878 005:900 JLINK_ClrBPEx(BPHandle = 0x00000011)  returns 0x00 (0000ms, 4355ms total)
T2878 005:900 JLINK_ReadReg(R0)  returns 0x00000000 (0000ms, 4355ms total)
T2878 005:900 JLINK_WriteMem(0x20000164, 0x0400 Bytes, ...) -- Data:  60 70 60 68 80 6F 98 B1 60 68 90 F8 22 00 10 F0 ... -- CPU_WriteMem(1024 bytes @ 0x20000164)  returns 0x400 (0019ms, 4355ms total)
